
T1F20 000:455 SEGGER J-Link V4.80g Log File (0001ms, 0284ms total)
T1F20 000:455 DLL Compiled: Feb 13 2014 20:50:02 (0001ms, 0284ms total)
T1F20 000:455 Logging started @ 2015-12-05 16:59 (0001ms, 0284ms total)
T1F20 000:456 JLINK_SetWarnOutHandler(...) (0000ms, 0284ms total)
T1F20 000:456 JLINK_OpenEx(...)
Firmware: J-Link ARM V8 compiled Nov 28 2014 13:44:46
Hardware: V8.00
S/N: 308622870
Feature(s): RDI,FlashDL,FlashBP,JFlash,GDBFULL  returns O.K. (0279ms, 0563ms total)
T1F20 000:735 JLINK_SetErrorOutHandler(...) (0000ms, 0563ms total)
T1F20 000:735 JLINK_ExecCommand("ProjectFile = "C:\Users\cris\Desktop\TEMP\smart_brush\Attitude\USER\JLinkSettings.ini"", ...)  returns 0x00 (0005ms, 0568ms total)
T1F20 000:740 JLINK_ExecCommand("Device = STM32F407VG", ...)Device "STM32F407VG" selected (1024 KB flash, 128 KB RAM).  returns 0x00 (0007ms, 0575ms total)
T1F20 000:747 JLINK_ExecCommand("DisableConnectionTimeout", ...)  returns 0x01 (0000ms, 0575ms total)
T1F20 000:747 JLINK_GetHardwareVersion()  returns 0x13880 (0000ms, 0575ms total)
T1F20 000:747 JLINK_GetDLLVersion()  returns 48007 (0000ms, 0575ms total)
T1F20 000:747 JLINK_GetFirmwareString(...) (0000ms, 0575ms total)
T1F20 000:748 JLINK_GetDLLVersion()  returns 48007 (0000ms, 0575ms total)
T1F20 000:748 JLINK_GetCompileDateTime() (0000ms, 0575ms total)
T1F20 000:748 JLINK_GetFirmwareString(...) (0000ms, 0575ms total)
T1F20 000:749 JLINK_GetHardwareVersion()  returns 0x13880 (0000ms, 0575ms total)
T1F20 000:752 JLINK_TIF_Select(JLINKARM_TIF_SWD)  returns 0x00 (0004ms, 0579ms total)
T1F20 000:756 JLINK_SetSpeed(10000) (0000ms, 0579ms total)
T1F20 000:756 JLINK_GetId() >0x108 TIF>Found SWD-DP with ID 0x2BA01477 >0x0D TIF> >0x28 TIF> >0x0D TIF> >0x28 TIF> >0x0D TIF> >0x21 TIF> >0x0D TIF> >0x28 TIF> >0x0D TIF> >0x28 TIF> >0x0D TIF> >0x28 TIF> >0x0D TIF> >0x21 TIF> >0x0D TIF> >0x21 TIF> >0x0D TIF> >0x28 TIF> >0x0D TIF> >0x21 TIF> >0x0D TIF> >0x21 TIF> >0x0D TIF> >0x28 TIF> >0x0D TIF> >0x21 TIF> >0x0D TIF> >0x21 TIF> >0x108 TIF>Found SWD-DP with ID 0x2BA01477 >0x0D TIF> >0x21 TIF> >0x0D TIF> >0x28 TIF> >0x0D TIF> >0x28 TIF> >0x0D TIF> >0x21 TIF>
 >0x0D TIF> >0x28 TIF> >0x0D TIF> >0x21 TIF> >0x0D TIF> >0x21 TIF> >0x0D TIF> >0x21 TIF> >0x0D TIF> >0x21 TIF> >0x0D TIF> >0x28 TIF> >0x0D TIF> >0x28 TIF> >0x0D TIF> >0x21 TIF> >0x0D TIF> >0x28 TIF> >0x0D TIF> >0x28 TIF> >0x0D TIF> >0x28 TIF> >0x0D TIF> >0x21 TIF> >0x0D TIF> >0x21 TIF> >0x0D TIF> >0x28 TIF> >0x0D TIF> >0x21 TIF> >0x0D TIF> >0x21 TIF>Found Cortex-M4 r0p1, Little endian. -- CPU_WriteMem(4 bytes @ 0xE0002000) -- CPU_ReadMem(4 bytes @ 0xE000EDF0) -- CPU_ReadMem(4 bytes @ 0xE0002000)
FPUnit: 6 code (BP) slots and 2 literal slots -- CPU_ReadMem(4 bytes @ 0xE000EDFC) -- CPU_ReadMem(4 bytes @ 0xE0001000) -- CPU_WriteMem(4 bytes @ 0xE0001000) -- CPU_ReadMem(4 bytes @ 0xE00FF010)TPIU fitted. -- CPU_ReadMem(4 bytes @ 0xE00FF014)ETM fitted. -- CPU_ReadMem(4 bytes @ 0xE00FF018) >0x0D TIF> >0x21 TIF>  returns 0x2BA01477 (0049ms, 0628ms total)
T1F20 000:805 JLINK_GetDeviceFamily()  returns 14 (0000ms, 0628ms total)
T1F20 000:805 JLINK_ReadMem (0xE00FFFF0, 0x0010 Bytes, ...) -- CPU is running -- CPU_ReadMem(16 bytes @ 0xE00FFFF0) -- Data:  0D 00 00 00 10 00 00 00 05 00 00 00 B1 00 00 00  returns 0x00 (0001ms, 0629ms total)
T1F20 000:806 JLINK_ReadMem (0xE00FFFD0, 0x0020 Bytes, ...) -- CPU is running -- CPU_ReadMem(32 bytes @ 0xE00FFFD0) -- Data:  00 00 00 00 00 00 00 00 00 00 00 00 00 00 00 00 ...  returns 0x00 (0001ms, 0630ms total)
T1F20 000:807 JLINK_ReadMem (0xE00FF000, 0x0018 Bytes, ...) -- CPU is running -- CPU_ReadMem(24 bytes @ 0xE00FF000) -- Data:  03 F0 F0 FF 03 20 F0 FF 03 30 F0 FF 03 10 F0 FF ...  returns 0x00 (0001ms, 0631ms total)
T1F20 000:808 JLINK_ReadMemU32(0xE000ED00, 0x0001 Items, ...) -- CPU is running -- CPU_ReadMem(4 bytes @ 0xE000ED00) -- Data:  41 C2 0F 41  returns 0x01 (0000ms, 0631ms total)
T1F20 000:808 JLINK_ReadMemU32(0xE000EF40, 0x0001 Items, ...) -- CPU is running -- CPU_ReadMem(4 bytes @ 0xE000EF40) -- Data:  21 00 11 10  returns 0x01 (0001ms, 0632ms total)
T1F20 000:809 JLINK_ReadMemU32(0xE000EF44, 0x0001 Items, ...) -- CPU is running -- CPU_ReadMem(4 bytes @ 0xE000EF44) -- Data:  11 00 00 11  returns 0x01 (0001ms, 0633ms total)
T1F20 000:810 JLINK_SetResetType(JLINKARM_RESET_TYPE_NORMAL)  returns JLINKARM_RESET_TYPE_NORMAL (0000ms, 0633ms total)
T1F20 000:810 JLINK_Reset() -- CPU is running -- CPU_WriteMem(4 bytes @ 0xE000EDF0) -- CPU is running -- CPU_WriteMem(4 bytes @ 0xE000EDFC) >0x35 TIF> -- CPU is running -- CPU_WriteMem(4 bytes @ 0xE000ED0C) -- CPU is running -- CPU_ReadMem(4 bytes @ 0xE000EDF0) -- CPU is running -- CPU_ReadMem(4 bytes @ 0xE000EDF0) -- CPU is running -- CPU_WriteMem(4 bytes @ 0xE000EDF0) -- CPU is running -- CPU_WriteMem(4 bytes @ 0xE000EDFC) -- CPU is running -- CPU_ReadMem(4 bytes @ 0xE000EDF0)
 -- CPU_WriteMem(4 bytes @ 0xE0002000) -- CPU_ReadMem(4 bytes @ 0xE000EDFC) -- CPU_ReadMem(4 bytes @ 0xE0001000) (0018ms, 0651ms total)
T1F20 000:828 JLINK_ReadReg(R15 (PC))  returns 0x080004C8 (0000ms, 0651ms total)
T1F20 000:828 JLINK_ReadReg(XPSR)  returns 0x01000000 (0000ms, 0651ms total)
T1F20 000:828 JLINK_Halt()  returns 0x00 (0000ms, 0651ms total)
T1F20 000:828 JLINK_IsHalted()  returns TRUE (0000ms, 0651ms total)
T1F20 000:828 JLINK_ReadMemU32(0xE000EDF0, 0x0001 Items, ...) -- CPU_ReadMem(4 bytes @ 0xE000EDF0) -- Data:  03 00 03 00  returns 0x01 (0001ms, 0652ms total)
T1F20 000:829 JLINK_WriteU32(0xE000EDF0, 0xA05F0003) -- CPU_WriteMem(4 bytes @ 0xE000EDF0)  returns 0x00 (0001ms, 0653ms total)
T1F20 000:830 JLINK_WriteU32(0xE000EDFC, 0x01000000) -- CPU_WriteMem(4 bytes @ 0xE000EDFC)  returns 0x00 (0000ms, 0653ms total)
T1F20 000:831 JLINK_GetHWStatus(...)  returns 0x00 (0000ms, 0653ms total)
T1F20 000:831 JLINK_GetNumBPUnits(Type = 0xFFFFFF00)  returns 0x06 (0000ms, 0653ms total)
T1F20 000:831 JLINK_GetNumBPUnits(Type = 0xF0)  returns 0x2000 (0000ms, 0653ms total)
T1F20 000:832 JLINK_GetNumWPUnits()  returns 0x04 (0000ms, 0654ms total)
T1F20 000:832 JLINK_GetSpeed()  returns 0xFA0 (0000ms, 0654ms total)
T1F20 000:832 JLINK_ReadMemU32(0xE000E004, 0x0001 Items, ...) -- CPU_ReadMem(4 bytes @ 0xE000E004) -- Data:  02 00 00 00  returns 0x01 (0001ms, 0655ms total)
T1F20 000:833 JLINK_ReadMemU32(0xE000E004, 0x0001 Items, ...) -- CPU_ReadMem(4 bytes @ 0xE000E004) -- Data:  02 00 00 00  returns 0x01 (0000ms, 0655ms total)
T1F20 000:833 JLINK_WriteMem(0xE0001000, 0x001C Bytes, ...) -- Data:  01 00 00 00 00 00 00 00 00 00 00 00 00 00 00 00 ... -- CPU_WriteMem(28 bytes @ 0xE0001000)  returns 0x1C (0001ms, 0656ms total)
T1F20 000:834 JLINK_ReadMem (0xE0001000, 0x001C Bytes, ...) -- CPU_ReadMem(28 bytes @ 0xE0001000) -- Data:  01 00 00 40 00 00 00 00 00 00 00 00 00 00 00 00 ...  returns 0x00 (0001ms, 0657ms total)
T1F20 000:835 JLINK_ReadReg(R15 (PC))  returns 0x080004C8 (0000ms, 0657ms total)
T1F20 000:835 JLINK_ReadReg(XPSR)  returns 0x01000000 (0000ms, 0657ms total)
T1F20 000:937 JLINK_SetResetType(JLINKARM_RESET_TYPE_NORMAL)  returns JLINKARM_RESET_TYPE_NORMAL (0000ms, 0657ms total)
T1F20 000:937 JLINK_Reset() -- CPU_WriteMem(4 bytes @ 0xE000EDF0) -- CPU_WriteMem(4 bytes @ 0xE000EDFC) >0x35 TIF> -- CPU_WriteMem(4 bytes @ 0xE000ED0C) -- CPU_ReadMem(4 bytes @ 0xE000EDF0) -- CPU_ReadMem(4 bytes @ 0xE000EDF0) -- CPU_WriteMem(4 bytes @ 0xE000EDF0) -- CPU_WriteMem(4 bytes @ 0xE000EDFC) -- CPU is running -- CPU_ReadMem(4 bytes @ 0xE000EDF0) -- CPU_WriteMem(4 bytes @ 0xE0002000) -- CPU_ReadMem(4 bytes @ 0xE000EDFC) -- CPU_ReadMem(4 bytes @ 0xE0001000) (0018ms, 0675ms total)
T1F20 000:955 JLINK_ReadReg(R15 (PC))  returns 0x080004C8 (0000ms, 0675ms total)
T1F20 000:955 JLINK_ReadReg(XPSR)  returns 0x01000000 (0000ms, 0675ms total)
T1F20 000:959 JLINK_ReadMem (0x080003C8, 0x0038 Bytes, ...) -- CPU_ReadMem(64 bytes @ 0x080003C0) -- Updating C cache (64 bytes @ 0x080003C0) -- Read from C cache (56 bytes @ 0x080003C8) -- Data:  08 1F 00 68 20 F4 80 20 09 1F 08 60 00 20 31 49 ...  returns 0x00 (0002ms, 0677ms total)
T1F20 000:961 JLINK_ReadMem (0x08000400, 0x0004 Bytes, ...) -- CPU_ReadMem(64 bytes @ 0x08000400) -- Updating C cache (64 bytes @ 0x08000400) -- Read from C cache (4 bytes @ 0x08000400) -- Data:  0C 00 20 B1  returns 0x00 (0001ms, 0678ms total)
T1F20 000:962 JLINK_ReadMem (0x08000404, 0x003C Bytes, ...) -- Read from C cache (60 bytes @ 0x08000404) -- Data:  04 28 06 D0 08 28 34 D1 07 E0 2A 4D 2A 4E 35 60 ...  returns 0x00 (0000ms, 0678ms total)
T1F20 000:962 JLINK_ReadMem (0x08000440, 0x003C Bytes, ...) -- CPU_ReadMem(64 bytes @ 0x08000440) -- Updating C cache (64 bytes @ 0x08000440) -- Read from C cache (60 bytes @ 0x08000440) -- Data:  C6 F3 88 16 05 FB 06 F2 09 E0 1B 4D B5 FB F1 F5 ...  returns 0x00 (0002ms, 0680ms total)
T1F20 000:964 JLINK_ReadMem (0x0800047C, 0x003C Bytes, ...) -- CPU_ReadMem(64 bytes @ 0x08000480) -- Updating C cache (64 bytes @ 0x08000480) -- Read from C cache (60 bytes @ 0x0800047C) -- Data:  00 BF 00 BF 06 4D 08 35 2D 68 C5 F3 03 15 0E 4E ...  returns 0x00 (0002ms, 0682ms total)
T1F20 000:966 JLINK_ReadMem (0x080004BA, 0x0002 Bytes, ...) -- Read from C cache (2 bytes @ 0x080004BA) -- Data:  F4 00  returns 0x00 (0000ms, 0682ms total)
T1F20 000:966 JLINK_ReadMem (0x080004BC, 0x003C Bytes, ...) -- CPU_ReadMem(64 bytes @ 0x080004C0) -- Updating C cache (64 bytes @ 0x080004C0) -- Read from C cache (60 bytes @ 0x080004BC) -- Data:  00 00 00 20 00 12 7A 00 04 00 00 20 06 48 80 47 ...  returns 0x00 (0001ms, 0683ms total)
T1F20 002:957 JLINK_ReadMem (0x20000078, 0x0004 Bytes, ...) -- CPU_ReadMem(64 bytes @ 0x20000040) -- Updating C cache (64 bytes @ 0x20000040) -- Read from C cache (4 bytes @ 0x20000078) -- Data:  4F 81 77 BF  returns 0x00 (0003ms, 0686ms total)
T1F20 002:976 JLINK_ReadMem (0x2000007C, 0x0004 Bytes, ...) -- Read from C cache (4 bytes @ 0x2000007C) -- Data:  52 15 FA BD  returns 0x00 (0000ms, 0686ms total)
T1F20 002:984 JLINK_ReadMem (0x20000080, 0x0004 Bytes, ...) -- CPU_ReadMem(64 bytes @ 0x20000080) -- Updating C cache (64 bytes @ 0x20000080) -- Read from C cache (4 bytes @ 0x20000080) -- Data:  A1 A3 00 3C  returns 0x00 (0001ms, 0687ms total)
T1F20 002:993 JLINK_ReadMem (0x20000084, 0x0004 Bytes, ...) -- Read from C cache (4 bytes @ 0x20000084) -- Data:  1B CF 5D BE  returns 0x00 (0000ms, 0687ms total)
T1F20 003:023 JLINK_ReadMem (0x20000088, 0x0004 Bytes, ...) -- Read from C cache (4 bytes @ 0x20000088) -- Data:  4D E7 DD 3D  returns 0x00 (0000ms, 0687ms total)
T1F20 003:033 JLINK_ReadMem (0x2000008C, 0x0004 Bytes, ...) -- Read from C cache (4 bytes @ 0x2000008C) -- Data:  BA BC 8A BC  returns 0x00 (0001ms, 0688ms total)
T1F20 003:054 JLINK_ReadMem (0x20000094, 0x0004 Bytes, ...) -- Read from C cache (4 bytes @ 0x20000094) -- Data:  28 8E 7B BF  returns 0x00 (0000ms, 0688ms total)
T1F20 003:079 JLINK_ReadMem (0x40000C24, 0x0004 Bytes, ...) -- CPU_ReadMem(4 bytes @ 0x40000C24) -- Data:  00 00 00 00  returns 0x00 (0001ms, 0689ms total)
T1F20 003:081 JLINK_ReadMem (0x40000C24, 0x0004 Bytes, ...) -- CPU_ReadMem(4 bytes @ 0x40000C24) -- Data:  00 00 00 00  returns 0x00 (0002ms, 0691ms total)
T1F20 003:083 JLINK_ReadMem (0x40000C24, 0x0004 Bytes, ...) -- CPU_ReadMem(4 bytes @ 0x40000C24) -- Data:  00 00 00 00  returns 0x00 (0001ms, 0692ms total)
T11E0 003:151 JLINK_SetBPEx(Addr = 0x080001DE, Type = 0xFFFFFFF2)  returns 0x00000001 (0000ms, 0692ms total)
T11E0 003:151 JLINK_Go() -- CPU_WriteMem(4 bytes @ 0xE0002000) -- CPU_WriteMem(4 bytes @ 0xE0002008) -- CPU_WriteMem(4 bytes @ 0xE000200C) -- CPU_WriteMem(4 bytes @ 0xE0002010) -- CPU_WriteMem(4 bytes @ 0xE0002014) -- CPU_WriteMem(4 bytes @ 0xE0002018) -- CPU_WriteMem(4 bytes @ 0xE000201C) -- CPU_WriteMem(4 bytes @ 0xE0001004) (0023ms, 0715ms total)
T11E0 003:274 JLINK_IsHalted()  returns TRUE (0003ms, 0718ms total)
T11E0 003:277 JLINK_Halt()  returns 0x00 (0000ms, 0715ms total)
T11E0 003:277 JLINK_IsHalted()  returns TRUE (0000ms, 0715ms total)
T11E0 003:277 JLINK_IsHalted()  returns TRUE (0000ms, 0715ms total)
T11E0 003:277 JLINK_IsHalted()  returns TRUE (0000ms, 0715ms total)
T11E0 003:277 JLINK_ReadReg(R15 (PC))  returns 0x080001DE (0000ms, 0715ms total)
T11E0 003:277 JLINK_ReadReg(XPSR)  returns 0x61000000 (0000ms, 0715ms total)
T11E0 003:277 JLINK_ClrBPEx(BPHandle = 0x00000001)  returns 0x00 (0000ms, 0715ms total)
T11E0 003:277 JLINK_ReadMemU32(0xE000ED30, 0x0001 Items, ...) -- CPU_ReadMem(4 bytes @ 0xE000ED30) -- Data:  03 00 00 00  returns 0x01 (0000ms, 0715ms total)
T11E0 003:277 JLINK_ReadMemU32(0xE0001028, 0x0001 Items, ...) -- CPU_ReadMem(4 bytes @ 0xE0001028) -- Data:  00 00 00 00  returns 0x01 (0001ms, 0716ms total)
T11E0 003:278 JLINK_ReadMemU32(0xE0001038, 0x0001 Items, ...) -- CPU_ReadMem(4 bytes @ 0xE0001038) -- Data:  00 02 00 00  returns 0x01 (0001ms, 0717ms total)
T11E0 003:279 JLINK_ReadMemU32(0xE0001048, 0x0001 Items, ...) -- CPU_ReadMem(4 bytes @ 0xE0001048) -- Data:  00 00 00 00  returns 0x01 (0000ms, 0717ms total)
T11E0 003:279 JLINK_ReadMemU32(0xE0001058, 0x0001 Items, ...) -- CPU_ReadMem(4 bytes @ 0xE0001058) -- Data:  00 00 00 00  returns 0x01 (0001ms, 0718ms total)
T11E0 003:280 JLINK_ReadReg(R0)  returns 0x080001DF (0000ms, 0718ms total)
T11E0 003:280 JLINK_ReadReg(R1)  returns 0x20000720 (0000ms, 0718ms total)
T11E0 003:280 JLINK_ReadReg(R2)  returns 0x00000000 (0000ms, 0718ms total)
T11E0 003:280 JLINK_ReadReg(R3)  returns 0x08005BF9 (0000ms, 0718ms total)
T11E0 003:280 JLINK_ReadReg(R4)  returns 0x08006770 (0000ms, 0718ms total)
T11E0 003:280 JLINK_ReadReg(R5)  returns 0x08006770 (0000ms, 0718ms total)
T11E0 003:280 JLINK_ReadReg(R6)  returns 0x00000000 (0000ms, 0718ms total)
T11E0 003:280 JLINK_ReadReg(R7)  returns 0x00000000 (0000ms, 0718ms total)
T11E0 003:280 JLINK_ReadReg(R8)  returns 0x00000000 (0000ms, 0718ms total)
T11E0 003:280 JLINK_ReadReg(R9)  returns 0x00000000 (0000ms, 0718ms total)
T11E0 003:280 JLINK_ReadReg(R10)  returns 0x00000000 (0000ms, 0718ms total)
T11E0 003:280 JLINK_ReadReg(R11)  returns 0x00000000 (0000ms, 0718ms total)
T11E0 003:280 JLINK_ReadReg(R12)  returns 0x00000000 (0000ms, 0718ms total)
T11E0 003:280 JLINK_ReadReg(R13 (SP))  returns 0x20000720 (0000ms, 0718ms total)
T11E0 003:280 JLINK_ReadReg(R14)  returns 0x08004895 (0000ms, 0718ms total)
T11E0 003:280 JLINK_ReadReg(R15 (PC))  returns 0x080001DE (0000ms, 0718ms total)
T11E0 003:280 JLINK_ReadReg(XPSR)  returns 0x61000000 (0000ms, 0718ms total)
T11E0 003:280 JLINK_ReadReg(MSP)  returns 0x20000720 (0000ms, 0718ms total)
T11E0 003:281 JLINK_ReadReg(PSP)  returns 0x00000000 (0000ms, 0719ms total)
T11E0 003:281 JLINK_ReadReg(CFBP)  returns 0x00000000 (0000ms, 0719ms total)
T11E0 003:281 JLINK_ReadReg(FPSCR)  returns 0x00000000 (0004ms, 0723ms total)
T11E0 003:285 JLINK_ReadReg(FPS0)  returns 0x00000000 (0000ms, 0723ms total)
T11E0 003:285 JLINK_ReadReg(FPS1)  returns 0x00000000 (0000ms, 0723ms total)
T11E0 003:285 JLINK_ReadReg(FPS2)  returns 0x00000000 (0000ms, 0723ms total)
T11E0 003:285 JLINK_ReadReg(FPS3)  returns 0x00000000 (0000ms, 0723ms total)
T11E0 003:285 JLINK_ReadReg(FPS4)  returns 0x00000000 (0000ms, 0723ms total)
T11E0 003:285 JLINK_ReadReg(FPS5)  returns 0x00000000 (0000ms, 0723ms total)
T11E0 003:285 JLINK_ReadReg(FPS6)  returns 0x00000000 (0000ms, 0723ms total)
T11E0 003:285 JLINK_ReadReg(FPS7)  returns 0x00000000 (0000ms, 0723ms total)
T11E0 003:285 JLINK_ReadReg(FPS8)  returns 0x00000000 (0000ms, 0723ms total)
T11E0 003:285 JLINK_ReadReg(FPS9)  returns 0x00000000 (0001ms, 0724ms total)
T11E0 003:286 JLINK_ReadReg(FPS10)  returns 0x00000000 (0000ms, 0724ms total)
T11E0 003:286 JLINK_ReadReg(FPS11)  returns 0x00000000 (0000ms, 0724ms total)
T11E0 003:286 JLINK_ReadReg(FPS12)  returns 0x00000000 (0000ms, 0724ms total)
T11E0 003:286 JLINK_ReadReg(FPS13)  returns 0x00000000 (0000ms, 0724ms total)
T11E0 003:286 JLINK_ReadReg(FPS14)  returns 0x00000000 (0000ms, 0724ms total)
T11E0 003:286 JLINK_ReadReg(FPS15)  returns 0x00000000 (0000ms, 0724ms total)
T11E0 003:286 JLINK_ReadReg(FPS16)  returns 0x00000000 (0000ms, 0724ms total)
T11E0 003:286 JLINK_ReadReg(FPS17)  returns 0x00000000 (0000ms, 0724ms total)
T11E0 003:286 JLINK_ReadReg(FPS18)  returns 0x00000000 (0000ms, 0724ms total)
T11E0 003:286 JLINK_ReadReg(FPS19)  returns 0x00000000 (0000ms, 0724ms total)
T11E0 003:286 JLINK_ReadReg(FPS20)  returns 0x00000000 (0001ms, 0725ms total)
T11E0 003:287 JLINK_ReadReg(FPS31)  returns 0x00000000 (0000ms, 0725ms total)
T11E0 003:287 JLINK_ReadReg(FPS7)  returns 0x00000000 (0000ms, 0725ms total)
T11E0 003:287 JLINK_ReadReg(FPS8)  returns 0x00000000 (0000ms, 0725ms total)
T11E0 003:287 JLINK_ReadReg(FPS9)  returns 0x00000000 (0000ms, 0725ms total)
T11E0 003:287 JLINK_ReadReg(FPS10)  returns 0x00000000 (0000ms, 0725ms total)
T11E0 003:287 JLINK_ReadReg(FPS11)  returns 0x00000000 (0000ms, 0725ms total)
T11E0 003:287 JLINK_ReadReg(FPS12)  returns 0x00000000 (0000ms, 0725ms total)
T11E0 003:287 JLINK_ReadReg(FPS13)  returns 0x00000000 (0000ms, 0725ms total)
T11E0 003:287 JLINK_ReadReg(FPS14)  returns 0x00000000 (0000ms, 0725ms total)
T11E0 003:287 JLINK_ReadReg(FPS15)  returns 0x00000000 (0000ms, 0725ms total)
T11E0 003:287 JLINK_ReadReg(FPS16)  returns 0x00000000 (0000ms, 0725ms total)
T1F20 003:291 JLINK_ReadMem (0x00000000, 0x0002 Bytes, ...) -- CPU_ReadMem(4 bytes @ 0x00000004) -- CPU_ReadMem(64 bytes @ 0x08000000) -- Updating C cache (64 bytes @ 0x08000000) -- Read from C cache (2 bytes @ 0x08000000) -- Data:  20 07  returns 0x00 (0003ms, 0728ms total)
T1F20 003:295 JLINK_ReadMemU32(0xE0001004, 0x0001 Items, ...) -- CPU_ReadMem(4 bytes @ 0xE0001004) -- Data:  71 3F 00 00  returns 0x01 (0001ms, 0729ms total)
T1F20 003:296 JLINK_ReadMem (0x20000078, 0x0004 Bytes, ...) -- CPU_ReadMem(64 bytes @ 0x20000040) -- Updating C cache (64 bytes @ 0x20000040) -- Read from C cache (4 bytes @ 0x20000078) -- Data:  00 00 00 00  returns 0x00 (0001ms, 0730ms total)
T1F20 003:299 JLINK_ReadMem (0x2000007C, 0x0004 Bytes, ...) -- Read from C cache (4 bytes @ 0x2000007C) -- Data:  00 00 00 00  returns 0x00 (0000ms, 0730ms total)
T1F20 003:299 JLINK_ReadMem (0x20000080, 0x0004 Bytes, ...) -- CPU_ReadMem(64 bytes @ 0x20000080) -- Updating C cache (64 bytes @ 0x20000080) -- Read from C cache (4 bytes @ 0x20000080) -- Data:  00 00 00 00  returns 0x00 (0002ms, 0732ms total)
T1F20 003:301 JLINK_ReadMem (0x20000084, 0x0004 Bytes, ...) -- Read from C cache (4 bytes @ 0x20000084) -- Data:  00 00 00 00  returns 0x00 (0000ms, 0732ms total)
T1F20 003:302 JLINK_ReadMem (0x20000088, 0x0004 Bytes, ...) -- Read from C cache (4 bytes @ 0x20000088) -- Data:  00 00 00 00  returns 0x00 (0000ms, 0732ms total)
T1F20 003:303 JLINK_ReadMem (0x2000008C, 0x0004 Bytes, ...) -- Read from C cache (4 bytes @ 0x2000008C) -- Data:  00 00 00 00  returns 0x00 (0000ms, 0732ms total)
T1F20 003:303 JLINK_ReadMem (0x20000094, 0x0004 Bytes, ...) -- Read from C cache (4 bytes @ 0x20000094) -- Data:  00 00 00 00  returns 0x00 (0000ms, 0732ms total)
T1F20 003:314 JLINK_ReadMem (0x40000C24, 0x0004 Bytes, ...) -- CPU_ReadMem(4 bytes @ 0x40000C24) -- Data:  00 00 00 00  returns 0x00 (0001ms, 0733ms total)
T1F20 003:315 JLINK_ReadMem (0x080001DC, 0x003C Bytes, ...) -- CPU_ReadMem(128 bytes @ 0x080001C0) -- Updating C cache (128 bytes @ 0x080001C0) -- Read from C cache (60 bytes @ 0x080001DC) -- Data:  70 47 2D ED 06 8B 88 B0 00 BF 00 BF 00 BF 00 BF ...  returns 0x00 (0002ms, 0735ms total)
T1F20 003:340 JLINK_ReadMem (0x08000226, 0x0002 Bytes, ...) -- Read from C cache (2 bytes @ 0x08000226) -- Data:  05 A8  returns 0x00 (0000ms, 0735ms total)
T1F20 003:340 JLINK_ReadMem (0x08000228, 0x003C Bytes, ...) -- CPU_ReadMem(64 bytes @ 0x08000240) -- Updating C cache (64 bytes @ 0x08000240) -- Read from C cache (60 bytes @ 0x08000228) -- Data:  02 F0 69 FC 9D ED 07 0A 10 EE 10 1A 08 46 04 F0 ...  returns 0x00 (0001ms, 0736ms total)
T1F20 003:341 JLINK_ReadMem (0x08000264, 0x003C Bytes, ...) -- CPU_ReadMem(64 bytes @ 0x08000280) -- Updating C cache (64 bytes @ 0x08000280) -- Read from C cache (60 bytes @ 0x08000264) -- Data:  02 8B 8D ED 00 9B 53 EC 1A 2B 06 A0 04 F0 62 FB ...  returns 0x00 (0001ms, 0737ms total)
T1F20 012:249 JLINK_ReadMem (0x08001BF4, 0x000C Bytes, ...) -- CPU_ReadMem(64 bytes @ 0x08001BC0) -- Updating C cache (64 bytes @ 0x08001BC0) -- Read from C cache (12 bytes @ 0x08001BF4) -- Data:  71 48 00 68 C0 F1 FF 30 70 49 09 68  returns 0x00 (0002ms, 0739ms total)
T1F20 012:251 JLINK_ReadMem (0x08001C00, 0x0030 Bytes, ...) -- CPU_ReadMem(64 bytes @ 0x08001C00) -- Updating C cache (64 bytes @ 0x08001C00) -- Read from C cache (48 bytes @ 0x08001C00) -- Data:  08 44 00 EE 10 0A B8 EE 40 0A DF ED 75 0A 80 EE ...  returns 0x00 (0001ms, 0740ms total)
T11E0 025:488 JLINK_SetBPEx(Addr = 0x08001BE0, Type = 0xFFFFFFF2)  returns 0x00000002 (0002ms, 0742ms total)
T11E0 025:490 JLINK_Go() -- CPU_WriteMem(4 bytes @ 0xE0002000) -- CPU_WriteMem(4 bytes @ 0xE0002008) (0003ms, 0745ms total)
T11E0 025:593 JLINK_IsHalted()  returns FALSE (0000ms, 0745ms total)
T11E0 025:693 JLINK_IsHalted()  returns FALSE (0000ms, 0745ms total)
T11E0 025:793 JLINK_IsHalted()  returns FALSE (0000ms, 0745ms total)
T11E0 025:893 JLINK_IsHalted()  returns FALSE (0000ms, 0745ms total)
T11E0 025:993 JLINK_IsHalted()  returns FALSE (0000ms, 0745ms total)
T11E0 026:093 JLINK_IsHalted()  returns FALSE (0000ms, 0745ms total)
T11E0 026:194 JLINK_IsHalted()  returns FALSE (0001ms, 0746ms total)
T11E0 026:295 JLINK_IsHalted()  returns TRUE (0005ms, 0750ms total)
T11E0 026:300 JLINK_Halt()  returns 0x00 (0000ms, 0745ms total)
T11E0 026:300 JLINK_IsHalted()  returns TRUE (0000ms, 0745ms total)
T11E0 026:300 JLINK_IsHalted()  returns TRUE (0000ms, 0745ms total)
T11E0 026:300 JLINK_IsHalted()  returns TRUE (0000ms, 0745ms total)
T11E0 026:300 JLINK_ReadReg(R15 (PC))  returns 0x08001BE0 (0000ms, 0745ms total)
T11E0 026:300 JLINK_ReadReg(XPSR)  returns 0xA1000000 (0000ms, 0745ms total)
T11E0 026:300 JLINK_ClrBPEx(BPHandle = 0x00000002)  returns 0x00 (0000ms, 0745ms total)
T11E0 026:300 JLINK_ReadMemU32(0xE000ED30, 0x0001 Items, ...) -- CPU_ReadMem(4 bytes @ 0xE000ED30) -- Data:  03 00 00 00  returns 0x01 (0000ms, 0745ms total)
T11E0 026:301 JLINK_ReadMemU32(0xE0001028, 0x0001 Items, ...) -- CPU_ReadMem(4 bytes @ 0xE0001028) -- Data:  00 00 00 00  returns 0x01 (0000ms, 0746ms total)
T11E0 026:301 JLINK_ReadMemU32(0xE0001038, 0x0001 Items, ...) -- CPU_ReadMem(4 bytes @ 0xE0001038) -- Data:  00 02 00 00  returns 0x01 (0001ms, 0747ms total)
T11E0 026:302 JLINK_ReadMemU32(0xE0001048, 0x0001 Items, ...) -- CPU_ReadMem(4 bytes @ 0xE0001048) -- Data:  00 00 00 00  returns 0x01 (0001ms, 0748ms total)
T11E0 026:303 JLINK_ReadMemU32(0xE0001058, 0x0001 Items, ...) -- CPU_ReadMem(4 bytes @ 0xE0001058) -- Data:  00 00 00 00  returns 0x01 (0001ms, 0749ms total)
T11E0 026:304 JLINK_ReadReg(R0)  returns 0x20000084 (0000ms, 0749ms total)
T11E0 026:304 JLINK_ReadReg(R1)  returns 0x0000FED4 (0000ms, 0749ms total)
T11E0 026:304 JLINK_ReadReg(R2)  returns 0xFFFFFF49 (0000ms, 0749ms total)
T11E0 026:304 JLINK_ReadReg(R3)  returns 0x000000ED (0000ms, 0749ms total)
T11E0 026:304 JLINK_ReadReg(R4)  returns 0x2000027C (0000ms, 0749ms total)
T11E0 026:304 JLINK_ReadReg(R5)  returns 0x08006770 (0000ms, 0749ms total)
T11E0 026:304 JLINK_ReadReg(R6)  returns 0x00000000 (0000ms, 0749ms total)
T11E0 026:304 JLINK_ReadReg(R7)  returns 0x00000000 (0000ms, 0749ms total)
T11E0 026:304 JLINK_ReadReg(R8)  returns 0x00000000 (0000ms, 0749ms total)
T11E0 026:304 JLINK_ReadReg(R9)  returns 0x00000000 (0000ms, 0749ms total)
T11E0 026:304 JLINK_ReadReg(R10)  returns 0x00000000 (0000ms, 0749ms total)
T11E0 026:304 JLINK_ReadReg(R11)  returns 0x00000000 (0000ms, 0749ms total)
T11E0 026:304 JLINK_ReadReg(R12)  returns 0x436D6745 (0000ms, 0749ms total)
T11E0 026:304 JLINK_ReadReg(R13 (SP))  returns 0x200005E0 (0000ms, 0749ms total)
T11E0 026:304 JLINK_ReadReg(R14)  returns 0x080029E5 (0000ms, 0749ms total)
T11E0 026:304 JLINK_ReadReg(R15 (PC))  returns 0x08001BE0 (0000ms, 0749ms total)
T11E0 026:304 JLINK_ReadReg(XPSR)  returns 0xA1000000 (0000ms, 0749ms total)
T11E0 026:304 JLINK_ReadReg(MSP)  returns 0x200005E0 (0000ms, 0749ms total)
T11E0 026:304 JLINK_ReadReg(PSP)  returns 0x00000000 (0000ms, 0749ms total)
T11E0 026:304 JLINK_ReadReg(CFBP)  returns 0x04000000 (0000ms, 0749ms total)
T11E0 026:304 JLINK_ReadReg(FPSCR)  returns 0x00000010 (0004ms, 0753ms total)
T11E0 026:308 JLINK_ReadReg(FPS0)  returns 0x3E361674 (0000ms, 0753ms total)
T11E0 026:308 JLINK_ReadReg(FPS1)  returns 0x3ED7E760 (0000ms, 0753ms total)
T11E0 026:308 JLINK_ReadReg(FPS2)  returns 0x3D6FBFA8 (0000ms, 0753ms total)
T11E0 026:308 JLINK_ReadReg(FPS3)  returns 0x448C3488 (0000ms, 0753ms total)
T11E0 026:308 JLINK_ReadReg(FPS4)  returns 0x45263F05 (0000ms, 0753ms total)
T11E0 026:308 JLINK_ReadReg(FPS5)  returns 0x466555BC (0001ms, 0754ms total)
T11E0 026:309 JLINK_ReadReg(FPS6)  returns 0x436D0000 (0000ms, 0754ms total)
T11E0 026:309 JLINK_ReadReg(FPS7)  returns 0xC3370000 (0000ms, 0754ms total)
T11E0 026:309 JLINK_ReadReg(FPS8)  returns 0xC3960000 (0000ms, 0754ms total)
T11E0 026:309 JLINK_ReadReg(FPS9)  returns 0x00000000 (0000ms, 0754ms total)
T11E0 026:309 JLINK_ReadReg(FPS10)  returns 0x00000000 (0000ms, 0754ms total)
T11E0 026:309 JLINK_ReadReg(FPS11)  returns 0x00000000 (0000ms, 0754ms total)
T11E0 026:309 JLINK_ReadReg(FPS12)  returns 0x00000000 (0000ms, 0754ms total)
T11E0 026:309 JLINK_ReadReg(FPS13)  returns 0x00000000 (0000ms, 0754ms total)
T11E0 026:309 JLINK_ReadReg(FPS14)  returns 0x00000000 (0000ms, 0754ms total)
T11E0 026:309 JLINK_ReadReg(FPS15)  returns 0x00000000 (0000ms, 0754ms total)
T11E0 026:309 JLINK_ReadReg(FPS16)  returns 0xBEC64B6E (0000ms, 0754ms total)
T11E0 026:309 JLINK_ReadReg(FPS17)  returns 0x3DA98371 (0000ms, 0754ms total)
T11E0 026:309 JLINK_ReadReg(FPS18)  returns 0x3EAA30C9 (0000ms, 0754ms total)
T11E0 026:309 JLINK_ReadReg(FPS19)  returns 0xBE0704A4 (0000ms, 0754ms total)
T11E0 026:309 JLINK_ReadReg(FPS20)  returns 0x3D1DCEB9 (0000ms, 0754ms total)
T11E0 026:309 JLINK_ReadReg(FPS31)  returns 0x00000000 (0000ms, 0754ms total)
T11E0 026:309 JLINK_ReadReg(FPS7)  returns 0xC3370000 (0000ms, 0754ms total)
T11E0 026:309 JLINK_ReadReg(FPS8)  returns 0xC3960000 (0000ms, 0754ms total)
T11E0 026:309 JLINK_ReadReg(FPS9)  returns 0x00000000 (0000ms, 0754ms total)
T11E0 026:309 JLINK_ReadReg(FPS10)  returns 0x00000000 (0000ms, 0754ms total)
T11E0 026:309 JLINK_ReadReg(FPS11)  returns 0x00000000 (0000ms, 0754ms total)
T11E0 026:309 JLINK_ReadReg(FPS12)  returns 0x00000000 (0000ms, 0754ms total)
T11E0 026:309 JLINK_ReadReg(FPS13)  returns 0x00000000 (0000ms, 0754ms total)
T11E0 026:309 JLINK_ReadReg(FPS14)  returns 0x00000000 (0000ms, 0754ms total)
T11E0 026:309 JLINK_ReadReg(FPS15)  returns 0x00000000 (0000ms, 0754ms total)
T11E0 026:309 JLINK_ReadReg(FPS16)  returns 0xBEC64B6E (0000ms, 0754ms total)
T1F20 026:310 JLINK_ReadMem (0x20000694, 0x0004 Bytes, ...) -- CPU_ReadMem(64 bytes @ 0x20000680) -- Updating C cache (64 bytes @ 0x20000680) -- Read from C cache (4 bytes @ 0x20000694) -- Data:  E5 29 00 08  returns 0x00 (0001ms, 0755ms total)
T1F20 026:311 JLINK_ReadMem (0x200006AC, 0x0004 Bytes, ...) -- Read from C cache (4 bytes @ 0x200006AC) -- Data:  0D 2B 00 08  returns 0x00 (0000ms, 0755ms total)
T1F20 026:311 JLINK_ReadMem (0x200006A8, 0x0004 Bytes, ...) -- Read from C cache (4 bytes @ 0x200006A8) -- Data:  FC 06 00 20  returns 0x00 (0000ms, 0755ms total)
T1F20 026:311 JLINK_ReadMem (0x200006E4, 0x0004 Bytes, ...) -- CPU_ReadMem(64 bytes @ 0x200006C0) -- Updating C cache (64 bytes @ 0x200006C0) -- Read from C cache (4 bytes @ 0x200006E4) -- Data:  2D 02 00 08  returns 0x00 (0001ms, 0756ms total)
T1F20 026:312 JLINK_ReadMem (0x200006E0, 0x0004 Bytes, ...) -- Read from C cache (4 bytes @ 0x200006E0) -- Data:  70 67 00 08  returns 0x00 (0000ms, 0756ms total)
T1F20 026:312 JLINK_ReadMem (0x2000066C, 0x0004 Bytes, ...) -- CPU_ReadMem(64 bytes @ 0x20000640) -- Updating C cache (64 bytes @ 0x20000640) -- Read from C cache (4 bytes @ 0x2000066C) -- Data:  79 7D 8B 3B  returns 0x00 (0001ms, 0757ms total)
T1F20 026:313 JLINK_ReadMem (0x20000670, 0x0004 Bytes, ...) -- Read from C cache (4 bytes @ 0x20000670) -- Data:  D7 5C 2E BD  returns 0x00 (0000ms, 0757ms total)
T1F20 026:313 JLINK_ReadMem (0x20000674, 0x0004 Bytes, ...) -- Read from C cache (4 bytes @ 0x20000674) -- Data:  A8 BF 6F 3D  returns 0x00 (0001ms, 0758ms total)
T1F20 026:314 JLINK_ReadMem (0x20000678, 0x0004 Bytes, ...) -- Read from C cache (4 bytes @ 0x20000678) -- Data:  88 34 8C 44  returns 0x00 (0000ms, 0758ms total)
T1F20 026:314 JLINK_ReadMem (0x2000067C, 0x0004 Bytes, ...) -- Read from C cache (4 bytes @ 0x2000067C) -- Data:  05 3F 26 45  returns 0x00 (0000ms, 0758ms total)
T1F20 026:314 JLINK_ReadMem (0x20000680, 0x0004 Bytes, ...) -- Read from C cache (4 bytes @ 0x20000680) -- Data:  BC 55 65 46  returns 0x00 (0000ms, 0758ms total)
T1F20 026:314 JLINK_ReadMem (0x20000684, 0x0004 Bytes, ...) -- Read from C cache (4 bytes @ 0x20000684) -- Data:  00 00 6D 43  returns 0x00 (0000ms, 0758ms total)
T1F20 026:314 JLINK_ReadMem (0x20000688, 0x0004 Bytes, ...) -- Read from C cache (4 bytes @ 0x20000688) -- Data:  00 00 37 C3  returns 0x00 (0000ms, 0758ms total)
T1F20 026:314 JLINK_ReadMem (0x2000068C, 0x0004 Bytes, ...) -- Read from C cache (4 bytes @ 0x2000068C) -- Data:  00 00 96 C3  returns 0x00 (0000ms, 0758ms total)
T1F20 026:314 JLINK_ReadMem (0x20000630, 0x0004 Bytes, ...) -- CPU_ReadMem(64 bytes @ 0x20000600) -- Updating C cache (64 bytes @ 0x20000600) -- Read from C cache (4 bytes @ 0x20000630) -- Data:  64 06 00 20  returns 0x00 (0001ms, 0759ms total)
T1F20 026:315 JLINK_ReadMem (0x2000062C, 0x0004 Bytes, ...) -- Read from C cache (4 bytes @ 0x2000062C) -- Data:  68 06 00 20  returns 0x00 (0000ms, 0759ms total)
T1F20 026:315 JLINK_ReadMem (0x20000628, 0x0004 Bytes, ...) -- Read from C cache (4 bytes @ 0x20000628) -- Data:  68 06 00 20  returns 0x00 (0000ms, 0759ms total)
T1F20 026:315 JLINK_ReadMem (0x20000624, 0x0004 Bytes, ...) -- Read from C cache (4 bytes @ 0x20000624) -- Data:  ED 40 00 08  returns 0x00 (0000ms, 0759ms total)
T1F20 026:315 JLINK_ReadMem (0x20000620, 0x0004 Bytes, ...) -- Read from C cache (4 bytes @ 0x20000620) -- Data:  06 00 00 00  returns 0x00 (0000ms, 0759ms total)
T1F20 026:315 JLINK_ReadMem (0x2000061C, 0x0004 Bytes, ...) -- Read from C cache (4 bytes @ 0x2000061C) -- Data:  06 00 00 00  returns 0x00 (0000ms, 0759ms total)
T1F20 026:315 JLINK_ReadMem (0x20000618, 0x0004 Bytes, ...) -- Read from C cache (4 bytes @ 0x20000618) -- Data:  05 00 00 00  returns 0x00 (0000ms, 0759ms total)
T1F20 026:315 JLINK_ReadMem (0x20000614, 0x0004 Bytes, ...) -- Read from C cache (4 bytes @ 0x20000614) -- Data:  45 40 00 08  returns 0x00 (0000ms, 0759ms total)
T1F20 026:315 JLINK_ReadMem (0x20000610, 0x0004 Bytes, ...) -- Read from C cache (4 bytes @ 0x20000610) -- Data:  49 00 00 00  returns 0x00 (0000ms, 0759ms total)
T1F20 026:315 JLINK_ReadMem (0x2000060C, 0x0004 Bytes, ...) -- Read from C cache (4 bytes @ 0x2000060C) -- Data:  00 00 00 00  returns 0x00 (0000ms, 0759ms total)
T1F20 026:315 JLINK_ReadMem (0x20000608, 0x0004 Bytes, ...) -- Read from C cache (4 bytes @ 0x20000608) -- Data:  00 00 00 00  returns 0x00 (0001ms, 0760ms total)
T1F20 026:316 JLINK_ReadMem (0x20000604, 0x0004 Bytes, ...) -- Read from C cache (4 bytes @ 0x20000604) -- Data:  79 5B 00 08  returns 0x00 (0000ms, 0760ms total)
T1F20 026:316 JLINK_ReadMem (0x20000600, 0x0004 Bytes, ...) -- Read from C cache (4 bytes @ 0x20000600) -- Data:  01 00 00 00  returns 0x00 (0000ms, 0760ms total)
T1F20 026:316 JLINK_ReadMem (0x200005FC, 0x0004 Bytes, ...) -- CPU_ReadMem(64 bytes @ 0x200005C0) -- Updating C cache (64 bytes @ 0x200005C0) -- Read from C cache (4 bytes @ 0x200005FC) -- Data:  00 00 00 00  returns 0x00 (0001ms, 0761ms total)
T1F20 026:317 JLINK_ReadMem (0x200005F8, 0x0004 Bytes, ...) -- Read from C cache (4 bytes @ 0x200005F8) -- Data:  00 00 00 00  returns 0x00 (0000ms, 0761ms total)
T1F20 026:317 JLINK_ReadMem (0x200005F4, 0x0004 Bytes, ...) -- Read from C cache (4 bytes @ 0x200005F4) -- Data:  00 00 00 00  returns 0x00 (0000ms, 0761ms total)
T1F20 026:317 JLINK_ReadMem (0x200005F0, 0x0004 Bytes, ...) -- Read from C cache (4 bytes @ 0x200005F0) -- Data:  00 00 00 00  returns 0x00 (0000ms, 0761ms total)
T1F20 026:317 JLINK_ReadMem (0x200005EC, 0x0004 Bytes, ...) -- Read from C cache (4 bytes @ 0x200005EC) -- Data:  00 00 00 00  returns 0x00 (0000ms, 0761ms total)
T1F20 026:317 JLINK_ReadMem (0x200005E8, 0x0004 Bytes, ...) -- Read from C cache (4 bytes @ 0x200005E8) -- Data:  70 67 00 08  returns 0x00 (0000ms, 0761ms total)
T1F20 026:317 JLINK_ReadMem (0x200005E4, 0x0004 Bytes, ...) -- Read from C cache (4 bytes @ 0x200005E4) -- Data:  01 00 00 00  returns 0x00 (0000ms, 0761ms total)
T1F20 026:317 JLINK_ReadMem (0x200005E0, 0x0004 Bytes, ...) -- Read from C cache (4 bytes @ 0x200005E0) -- Data:  FD 03 00 00  returns 0x00 (0000ms, 0761ms total)
T1F20 026:319 JLINK_ReadMem (0x00000000, 0x0002 Bytes, ...) -- CPU_ReadMem(4 bytes @ 0x00000004) -- CPU_ReadMem(64 bytes @ 0x08000000) -- Updating C cache (64 bytes @ 0x08000000) -- Read from C cache (2 bytes @ 0x08000000) -- Data:  20 07  returns 0x00 (0002ms, 0763ms total)
T1F20 026:321 JLINK_ReadMemU32(0xE0001004, 0x0001 Items, ...) -- CPU_ReadMem(4 bytes @ 0xE0001004) -- Data:  71 E1 2A 07  returns 0x01 (0001ms, 0764ms total)
T1F20 026:322 JLINK_ReadMem (0x20000078, 0x0004 Bytes, ...) -- CPU_ReadMem(64 bytes @ 0x20000040) -- Updating C cache (64 bytes @ 0x20000040) -- Read from C cache (4 bytes @ 0x20000078) -- Data:  DE F7 2B BF  returns 0x00 (0001ms, 0765ms total)
T1F20 026:325 JLINK_ReadMem (0x2000007C, 0x0004 Bytes, ...) -- Read from C cache (4 bytes @ 0x2000007C) -- Data:  8D FE 48 3E  returns 0x00 (0000ms, 0765ms total)
T1F20 026:326 JLINK_ReadMem (0x20000080, 0x0004 Bytes, ...) -- CPU_ReadMem(64 bytes @ 0x20000080) -- Updating C cache (64 bytes @ 0x20000080) -- Read from C cache (4 bytes @ 0x20000080) -- Data:  6A 98 13 3F  returns 0x00 (0001ms, 0766ms total)
T1F20 026:328 JLINK_ReadMem (0x20000084, 0x0004 Bytes, ...) -- Read from C cache (4 bytes @ 0x20000084) -- Data:  60 E7 D7 3E  returns 0x00 (0000ms, 0766ms total)
T1F20 026:339 JLINK_ReadMem (0x20000088, 0x0004 Bytes, ...) -- Read from C cache (4 bytes @ 0x20000088) -- Data:  00 00 80 3F  returns 0x00 (0000ms, 0766ms total)
T1F20 026:340 JLINK_ReadMem (0x2000008C, 0x0004 Bytes, ...) -- Read from C cache (4 bytes @ 0x2000008C) -- Data:  00 00 00 00  returns 0x00 (0000ms, 0766ms total)
T1F20 026:340 JLINK_ReadMem (0x20000094, 0x0004 Bytes, ...) -- Read from C cache (4 bytes @ 0x20000094) -- Data:  00 00 00 00  returns 0x00 (0000ms, 0766ms total)
T1F20 026:341 JLINK_ReadMem (0x40000C24, 0x0004 Bytes, ...) -- CPU_ReadMem(4 bytes @ 0x40000C24) -- Data:  76 91 04 00  returns 0x00 (0001ms, 0767ms total)
T1F20 026:354 JLINK_ReadMem (0x08001BD0, 0x0030 Bytes, ...) -- CPU_ReadMem(64 bytes @ 0x08001BC0) -- Updating C cache (64 bytes @ 0x08001BC0) -- Read from C cache (48 bytes @ 0x08001BD0) -- Data:  90 ED 00 0A D0 ED 00 0A 20 EE 20 0A B0 EE 40 DA ...  returns 0x00 (0001ms, 0768ms total)
T1F20 026:355 JLINK_ReadMem (0x08001C00, 0x000C Bytes, ...) -- CPU_ReadMem(64 bytes @ 0x08001C00) -- Updating C cache (64 bytes @ 0x08001C00) -- Read from C cache (12 bytes @ 0x08001C00) -- Data:  08 44 00 EE 10 0A B8 EE 40 0A DF ED  returns 0x00 (0001ms, 0769ms total)
T1F20 026:356 JLINK_ReadMem (0x08001BBE, 0x0002 Bytes, ...) -- CPU_ReadMem(64 bytes @ 0x08001B80) -- Updating C cache (64 bytes @ 0x08001B80) -- Read from C cache (2 bytes @ 0x08001BBE) -- Data:  90 ED  returns 0x00 (0001ms, 0770ms total)
T1F20 026:357 JLINK_ReadMem (0x08001BC0, 0x003C Bytes, ...) -- Read from C cache (60 bytes @ 0x08001BC0) -- Data:  00 0A 72 48 D0 ED 00 0A 20 EE 20 0A F0 EE 40 AA ...  returns 0x00 (0000ms, 0770ms total)
T11E0 030:409 JLINK_Step() -- Read from C cache (2 bytes @ 0x08001BE0) -- CPU_ReadMem(64 bytes @ 0x08001D80) -- Updating C cache (64 bytes @ 0x08001D80) -- Read from C cache (4 bytes @ 0x08001DB8) -- Simulated  returns 0x00 (0002ms, 0772ms total)
T11E0 030:411 JLINK_ReadReg(R15 (PC))  returns 0x08001BE2 (0000ms, 0772ms total)
T11E0 030:411 JLINK_ReadReg(XPSR)  returns 0xA1000000 (0000ms, 0772ms total)
T11E0 030:411 JLINK_Step() -- Read from C cache (2 bytes @ 0x08001BE2) -- Not simulated -- CPU_WriteMem(4 bytes @ 0xE0002008) -- CPU_WriteMem(4 bytes @ 0xE0001004)  returns 0x00 (0007ms, 0779ms total)
T11E0 030:418 JLINK_ReadReg(R15 (PC))  returns 0x08001BE4 (0000ms, 0779ms total)
T11E0 030:418 JLINK_ReadReg(XPSR)  returns 0xA1000000 (0000ms, 0779ms total)
T11E0 030:418 JLINK_Step() -- CPU_ReadMem(64 bytes @ 0x08001BC0) -- Updating C cache (64 bytes @ 0x08001BC0) -- Read from C cache (2 bytes @ 0x08001BE4) -- CPU_ReadMem(4 bytes @ 0xE0001004) -- CPU_ReadMem(64 bytes @ 0x08001DC0) -- Updating C cache (64 bytes @ 0x08001DC0) -- Read from C cache (4 bytes @ 0x08001DC0) -- Simulated  returns 0x00 (0003ms, 0782ms total)
T11E0 030:421 JLINK_ReadReg(R15 (PC))  returns 0x08001BE6 (0000ms, 0782ms total)
T11E0 030:421 JLINK_ReadReg(XPSR)  returns 0xA1000000 (0000ms, 0782ms total)
T11E0 030:421 JLINK_Step() -- Read from C cache (2 bytes @ 0x08001BE6) -- CPU_WriteMem(4 bytes @ 0x200000AC) -- Simulated  returns 0x00 (0001ms, 0783ms total)
T11E0 030:422 JLINK_ReadReg(R15 (PC))  returns 0x08001BE8 (0000ms, 0783ms total)
T11E0 030:422 JLINK_ReadReg(XPSR)  returns 0xA1000000 (0000ms, 0783ms total)
T11E0 030:422 JLINK_ReadReg(R0)  returns 0x0042B915 (0000ms, 0783ms total)
T11E0 030:422 JLINK_ReadReg(R1)  returns 0x200000AC (0000ms, 0783ms total)
T11E0 030:422 JLINK_ReadReg(R2)  returns 0xFFFFFF49 (0000ms, 0783ms total)
T11E0 030:422 JLINK_ReadReg(R3)  returns 0x000000ED (0000ms, 0783ms total)
T11E0 030:422 JLINK_ReadReg(R4)  returns 0x2000027C (0000ms, 0783ms total)
T11E0 030:422 JLINK_ReadReg(R5)  returns 0x08006770 (0000ms, 0783ms total)
T11E0 030:422 JLINK_ReadReg(R6)  returns 0x00000000 (0000ms, 0783ms total)
T11E0 030:422 JLINK_ReadReg(R7)  returns 0x00000000 (0000ms, 0783ms total)
T11E0 030:422 JLINK_ReadReg(R8)  returns 0x00000000 (0000ms, 0783ms total)
T11E0 030:422 JLINK_ReadReg(R9)  returns 0x00000000 (0000ms, 0783ms total)
T11E0 030:422 JLINK_ReadReg(R10)  returns 0x00000000 (0000ms, 0783ms total)
T11E0 030:422 JLINK_ReadReg(R11)  returns 0x00000000 (0000ms, 0783ms total)
T11E0 030:422 JLINK_ReadReg(R12)  returns 0x436D6745 (0000ms, 0783ms total)
T11E0 030:422 JLINK_ReadReg(R13 (SP))  returns 0x200005E0 (0000ms, 0783ms total)
T11E0 030:422 JLINK_ReadReg(R14)  returns 0x080029E5 (0000ms, 0783ms total)
T11E0 030:422 JLINK_ReadReg(R15 (PC))  returns 0x08001BE8 (0000ms, 0783ms total)
T11E0 030:422 JLINK_ReadReg(XPSR)  returns 0xA1000000 (0000ms, 0783ms total)
T11E0 030:422 JLINK_ReadReg(MSP)  returns 0x200005E0 (0000ms, 0783ms total)
T11E0 030:422 JLINK_ReadReg(PSP)  returns 0x00000000 (0000ms, 0783ms total)
T11E0 030:422 JLINK_ReadReg(CFBP)  returns 0x04000000 (0000ms, 0783ms total)
T11E0 030:422 JLINK_ReadReg(FPSCR)  returns 0x00000010 (0004ms, 0787ms total)
T11E0 030:426 JLINK_ReadReg(FPS0)  returns 0x3E361674 (0001ms, 0788ms total)
T11E0 030:427 JLINK_ReadReg(FPS1)  returns 0x3ED7E760 (0000ms, 0788ms total)
T11E0 030:427 JLINK_ReadReg(FPS2)  returns 0x3D6FBFA8 (0000ms, 0788ms total)
T11E0 030:427 JLINK_ReadReg(FPS3)  returns 0x448C3488 (0000ms, 0788ms total)
T11E0 030:427 JLINK_ReadReg(FPS4)  returns 0x45263F05 (0000ms, 0788ms total)
T11E0 030:427 JLINK_ReadReg(FPS5)  returns 0x466555BC (0000ms, 0788ms total)
T11E0 030:427 JLINK_ReadReg(FPS6)  returns 0x436D0000 (0000ms, 0788ms total)
T11E0 030:427 JLINK_ReadReg(FPS7)  returns 0xC3370000 (0000ms, 0788ms total)
T11E0 030:427 JLINK_ReadReg(FPS8)  returns 0xC3960000 (0000ms, 0788ms total)
T11E0 030:427 JLINK_ReadReg(FPS9)  returns 0x00000000 (0000ms, 0788ms total)
T11E0 030:427 JLINK_ReadReg(FPS10)  returns 0x00000000 (0000ms, 0788ms total)
T11E0 030:427 JLINK_ReadReg(FPS11)  returns 0x00000000 (0000ms, 0788ms total)
T11E0 030:427 JLINK_ReadReg(FPS12)  returns 0x00000000 (0000ms, 0788ms total)
T11E0 030:427 JLINK_ReadReg(FPS13)  returns 0x00000000 (0000ms, 0788ms total)
T11E0 030:427 JLINK_ReadReg(FPS14)  returns 0x00000000 (0000ms, 0788ms total)
T11E0 030:427 JLINK_ReadReg(FPS15)  returns 0x00000000 (0000ms, 0788ms total)
T11E0 030:427 JLINK_ReadReg(FPS16)  returns 0xBEC64B6E (0000ms, 0788ms total)
T11E0 030:427 JLINK_ReadReg(FPS17)  returns 0x3DA98371 (0000ms, 0788ms total)
T11E0 030:427 JLINK_ReadReg(FPS18)  returns 0x3EAA30C9 (0000ms, 0788ms total)
T11E0 030:427 JLINK_ReadReg(FPS19)  returns 0xBE0704A4 (0000ms, 0788ms total)
T11E0 030:427 JLINK_ReadReg(FPS20)  returns 0x3D1DCEB9 (0000ms, 0788ms total)
T11E0 030:427 JLINK_ReadReg(FPS31)  returns 0x00000000 (0000ms, 0788ms total)
T11E0 030:427 JLINK_ReadReg(FPS7)  returns 0xC3370000 (0000ms, 0788ms total)
T11E0 030:427 JLINK_ReadReg(FPS8)  returns 0xC3960000 (0000ms, 0788ms total)
T11E0 030:427 JLINK_ReadReg(FPS9)  returns 0x00000000 (0000ms, 0788ms total)
T11E0 030:427 JLINK_ReadReg(FPS10)  returns 0x00000000 (0000ms, 0788ms total)
T11E0 030:427 JLINK_ReadReg(FPS11)  returns 0x00000000 (0000ms, 0788ms total)
T11E0 030:427 JLINK_ReadReg(FPS12)  returns 0x00000000 (0000ms, 0788ms total)
T11E0 030:427 JLINK_ReadReg(FPS13)  returns 0x00000000 (0000ms, 0788ms total)
T11E0 030:427 JLINK_ReadReg(FPS14)  returns 0x00000000 (0000ms, 0788ms total)
T11E0 030:427 JLINK_ReadReg(FPS15)  returns 0x00000000 (0000ms, 0788ms total)
T11E0 030:427 JLINK_ReadReg(FPS16)  returns 0xBEC64B6E (0000ms, 0788ms total)
T1F20 030:428 JLINK_ReadMem (0x20000694, 0x0004 Bytes, ...) -- CPU_ReadMem(64 bytes @ 0x20000680) -- Updating C cache (64 bytes @ 0x20000680) -- Read from C cache (4 bytes @ 0x20000694) -- Data:  E5 29 00 08  returns 0x00 (0002ms, 0790ms total)
T1F20 030:430 JLINK_ReadMem (0x200006AC, 0x0004 Bytes, ...) -- Read from C cache (4 bytes @ 0x200006AC) -- Data:  0D 2B 00 08  returns 0x00 (0000ms, 0790ms total)
T1F20 030:430 JLINK_ReadMem (0x200006A8, 0x0004 Bytes, ...) -- Read from C cache (4 bytes @ 0x200006A8) -- Data:  FC 06 00 20  returns 0x00 (0000ms, 0790ms total)
T1F20 030:430 JLINK_ReadMem (0x200006E4, 0x0004 Bytes, ...) -- CPU_ReadMem(64 bytes @ 0x200006C0) -- Updating C cache (64 bytes @ 0x200006C0) -- Read from C cache (4 bytes @ 0x200006E4) -- Data:  2D 02 00 08  returns 0x00 (0001ms, 0791ms total)
T1F20 030:431 JLINK_ReadMem (0x200006E0, 0x0004 Bytes, ...) -- Read from C cache (4 bytes @ 0x200006E0) -- Data:  70 67 00 08  returns 0x00 (0000ms, 0791ms total)
T1F20 030:431 JLINK_ReadMem (0x2000066C, 0x0004 Bytes, ...) -- CPU_ReadMem(64 bytes @ 0x20000640) -- Updating C cache (64 bytes @ 0x20000640) -- Read from C cache (4 bytes @ 0x2000066C) -- Data:  79 7D 8B 3B  returns 0x00 (0001ms, 0792ms total)
T1F20 030:432 JLINK_ReadMem (0x20000670, 0x0004 Bytes, ...) -- Read from C cache (4 bytes @ 0x20000670) -- Data:  D7 5C 2E BD  returns 0x00 (0000ms, 0792ms total)
T1F20 030:432 JLINK_ReadMem (0x20000674, 0x0004 Bytes, ...) -- Read from C cache (4 bytes @ 0x20000674) -- Data:  A8 BF 6F 3D  returns 0x00 (0000ms, 0792ms total)
T1F20 030:432 JLINK_ReadMem (0x20000678, 0x0004 Bytes, ...) -- Read from C cache (4 bytes @ 0x20000678) -- Data:  88 34 8C 44  returns 0x00 (0000ms, 0792ms total)
T1F20 030:432 JLINK_ReadMem (0x2000067C, 0x0004 Bytes, ...) -- Read from C cache (4 bytes @ 0x2000067C) -- Data:  05 3F 26 45  returns 0x00 (0000ms, 0792ms total)
T1F20 030:432 JLINK_ReadMem (0x20000680, 0x0004 Bytes, ...) -- Read from C cache (4 bytes @ 0x20000680) -- Data:  BC 55 65 46  returns 0x00 (0000ms, 0792ms total)
T1F20 030:432 JLINK_ReadMem (0x20000684, 0x0004 Bytes, ...) -- Read from C cache (4 bytes @ 0x20000684) -- Data:  00 00 6D 43  returns 0x00 (0000ms, 0792ms total)
T1F20 030:432 JLINK_ReadMem (0x20000688, 0x0004 Bytes, ...) -- Read from C cache (4 bytes @ 0x20000688) -- Data:  00 00 37 C3  returns 0x00 (0000ms, 0792ms total)
T1F20 030:432 JLINK_ReadMem (0x2000068C, 0x0004 Bytes, ...) -- Read from C cache (4 bytes @ 0x2000068C) -- Data:  00 00 96 C3  returns 0x00 (0000ms, 0792ms total)
T1F20 030:432 JLINK_ReadMem (0x20000630, 0x0004 Bytes, ...) -- CPU_ReadMem(64 bytes @ 0x20000600) -- Updating C cache (64 bytes @ 0x20000600) -- Read from C cache (4 bytes @ 0x20000630) -- Data:  64 06 00 20  returns 0x00 (0002ms, 0794ms total)
T1F20 030:434 JLINK_ReadMem (0x2000062C, 0x0004 Bytes, ...) -- Read from C cache (4 bytes @ 0x2000062C) -- Data:  68 06 00 20  returns 0x00 (0000ms, 0794ms total)
T1F20 030:434 JLINK_ReadMem (0x20000628, 0x0004 Bytes, ...) -- Read from C cache (4 bytes @ 0x20000628) -- Data:  68 06 00 20  returns 0x00 (0000ms, 0794ms total)
T1F20 030:434 JLINK_ReadMem (0x20000624, 0x0004 Bytes, ...) -- Read from C cache (4 bytes @ 0x20000624) -- Data:  ED 40 00 08  returns 0x00 (0000ms, 0794ms total)
T1F20 030:434 JLINK_ReadMem (0x20000620, 0x0004 Bytes, ...) -- Read from C cache (4 bytes @ 0x20000620) -- Data:  06 00 00 00  returns 0x00 (0000ms, 0794ms total)
T1F20 030:434 JLINK_ReadMem (0x2000061C, 0x0004 Bytes, ...) -- Read from C cache (4 bytes @ 0x2000061C) -- Data:  06 00 00 00  returns 0x00 (0000ms, 0794ms total)
T1F20 030:434 JLINK_ReadMem (0x20000618, 0x0004 Bytes, ...) -- Read from C cache (4 bytes @ 0x20000618) -- Data:  05 00 00 00  returns 0x00 (0000ms, 0794ms total)
T1F20 030:434 JLINK_ReadMem (0x20000614, 0x0004 Bytes, ...) -- Read from C cache (4 bytes @ 0x20000614) -- Data:  45 40 00 08  returns 0x00 (0000ms, 0794ms total)
T1F20 030:434 JLINK_ReadMem (0x20000610, 0x0004 Bytes, ...) -- Read from C cache (4 bytes @ 0x20000610) -- Data:  49 00 00 00  returns 0x00 (0000ms, 0794ms total)
T1F20 030:434 JLINK_ReadMem (0x2000060C, 0x0004 Bytes, ...) -- Read from C cache (4 bytes @ 0x2000060C) -- Data:  00 00 00 00  returns 0x00 (0000ms, 0794ms total)
T1F20 030:434 JLINK_ReadMem (0x20000608, 0x0004 Bytes, ...) -- Read from C cache (4 bytes @ 0x20000608) -- Data:  00 00 00 00  returns 0x00 (0000ms, 0794ms total)
T1F20 030:434 JLINK_ReadMem (0x20000604, 0x0004 Bytes, ...) -- Read from C cache (4 bytes @ 0x20000604) -- Data:  79 5B 00 08  returns 0x00 (0000ms, 0794ms total)
T1F20 030:434 JLINK_ReadMem (0x20000600, 0x0004 Bytes, ...) -- Read from C cache (4 bytes @ 0x20000600) -- Data:  01 00 00 00  returns 0x00 (0000ms, 0794ms total)
T1F20 030:434 JLINK_ReadMem (0x200005FC, 0x0004 Bytes, ...) -- CPU_ReadMem(64 bytes @ 0x200005C0) -- Updating C cache (64 bytes @ 0x200005C0) -- Read from C cache (4 bytes @ 0x200005FC) -- Data:  00 00 00 00  returns 0x00 (0002ms, 0796ms total)
T1F20 030:436 JLINK_ReadMem (0x200005F8, 0x0004 Bytes, ...) -- Read from C cache (4 bytes @ 0x200005F8) -- Data:  00 00 00 00  returns 0x00 (0000ms, 0796ms total)
T1F20 030:436 JLINK_ReadMem (0x200005F4, 0x0004 Bytes, ...) -- Read from C cache (4 bytes @ 0x200005F4) -- Data:  00 00 00 00  returns 0x00 (0000ms, 0796ms total)
T1F20 030:436 JLINK_ReadMem (0x200005F0, 0x0004 Bytes, ...) -- Read from C cache (4 bytes @ 0x200005F0) -- Data:  00 00 00 00  returns 0x00 (0000ms, 0796ms total)
T1F20 030:436 JLINK_ReadMem (0x200005EC, 0x0004 Bytes, ...) -- Read from C cache (4 bytes @ 0x200005EC) -- Data:  00 00 00 00  returns 0x00 (0000ms, 0796ms total)
T1F20 030:436 JLINK_ReadMem (0x200005E8, 0x0004 Bytes, ...) -- Read from C cache (4 bytes @ 0x200005E8) -- Data:  70 67 00 08  returns 0x00 (0000ms, 0796ms total)
T1F20 030:436 JLINK_ReadMem (0x200005E4, 0x0004 Bytes, ...) -- Read from C cache (4 bytes @ 0x200005E4) -- Data:  01 00 00 00  returns 0x00 (0000ms, 0796ms total)
T1F20 030:436 JLINK_ReadMem (0x200005E0, 0x0004 Bytes, ...) -- Read from C cache (4 bytes @ 0x200005E0) -- Data:  FD 03 00 00  returns 0x00 (0000ms, 0796ms total)
T1F20 030:436 JLINK_ReadMem (0x00000000, 0x0002 Bytes, ...) -- CPU_ReadMem(4 bytes @ 0x00000004) -- CPU_ReadMem(64 bytes @ 0x08000000) -- Updating C cache (64 bytes @ 0x08000000) -- Read from C cache (2 bytes @ 0x08000000) -- Data:  20 07  returns 0x00 (0002ms, 0798ms total)
T1F20 030:438 JLINK_ReadMemU32(0xE0001004, 0x0001 Items, ...) -- Data:  7F E1 2A 07  returns 0x01 (0000ms, 0798ms total)
T1F20 030:438 JLINK_ReadMem (0x20000078, 0x0004 Bytes, ...) -- CPU_ReadMem(64 bytes @ 0x20000040) -- Updating C cache (64 bytes @ 0x20000040) -- Read from C cache (4 bytes @ 0x20000078) -- Data:  DE F7 2B BF  returns 0x00 (0001ms, 0799ms total)
T1F20 030:440 JLINK_ReadMem (0x2000007C, 0x0004 Bytes, ...) -- Read from C cache (4 bytes @ 0x2000007C) -- Data:  8D FE 48 3E  returns 0x00 (0000ms, 0799ms total)
T1F20 030:441 JLINK_ReadMem (0x20000080, 0x0004 Bytes, ...) -- CPU_ReadMem(64 bytes @ 0x20000080) -- Updating C cache (64 bytes @ 0x20000080) -- Read from C cache (4 bytes @ 0x20000080) -- Data:  6A 98 13 3F  returns 0x00 (0001ms, 0800ms total)
T1F20 030:442 JLINK_ReadMem (0x20000084, 0x0004 Bytes, ...) -- Read from C cache (4 bytes @ 0x20000084) -- Data:  60 E7 D7 3E  returns 0x00 (0001ms, 0801ms total)
T1F20 030:444 JLINK_ReadMem (0x20000088, 0x0004 Bytes, ...) -- Read from C cache (4 bytes @ 0x20000088) -- Data:  00 00 80 3F  returns 0x00 (0000ms, 0801ms total)
T1F20 030:444 JLINK_ReadMem (0x2000008C, 0x0004 Bytes, ...) -- Read from C cache (4 bytes @ 0x2000008C) -- Data:  00 00 00 00  returns 0x00 (0000ms, 0801ms total)
T1F20 030:445 JLINK_ReadMem (0x20000094, 0x0004 Bytes, ...) -- Read from C cache (4 bytes @ 0x20000094) -- Data:  00 00 00 00  returns 0x00 (0000ms, 0801ms total)
T1F20 030:446 JLINK_ReadMem (0x40000C24, 0x0004 Bytes, ...) -- CPU_ReadMem(4 bytes @ 0x40000C24) -- Data:  5E 36 43 00  returns 0x00 (0002ms, 0803ms total)
T11E0 031:045 JLINK_ReadMem (0x08001BE8, 0x0018 Bytes, ...) -- Read from C cache (24 bytes @ 0x08001BE8) -- Data:  08 46 00 68 73 49 09 68 88 42 15 D2 71 48 00 68 ...  returns 0x00 (0000ms, 0803ms total)
T11E0 031:045 JLINK_ReadMem (0x08001C00, 0x0024 Bytes, ...) -- CPU_ReadMem(64 bytes @ 0x08001C00) -- Updating C cache (64 bytes @ 0x08001C00) -- Read from C cache (36 bytes @ 0x08001C00) -- Data:  08 44 00 EE 10 0A B8 EE 40 0A DF ED 75 0A 80 EE ...  returns 0x00 (0001ms, 0804ms total)
